T4D5C 000:008.490   SEGGER J-Link V7.54 Log File
T4D5C 000:008.638   DLL Compiled: Sep  1 2021 10:41:51
T4D5C 000:008.649   Logging started @ 2026-03-02 03:23
T4D5C 000:008.659 - 8.664ms
T4D5C 000:008.676 JLINK_SetWarnOutHandler(...)
T4D5C 000:008.688 - 0.015ms
T4D5C 000:008.697 JLINK_OpenEx(...)
T4D5C 000:010.338   Firmware: J-Link V9 compiled May  7 2021 16:26:12
T4D5C 000:010.818   Firmware: J-Link V9 compiled May  7 2021 16:26:12
T4D5C 000:011.005   Decompressing FW timestamp took 155 us
T4D5C 000:017.495   Hardware: V9.20
T4D5C 000:017.528   S/N: 4294967295
T4D5C 000:017.538   OEM: SEGGER
T4D5C 000:017.548   Feature(s): RDI, GDB, FlashDL, FlashBP, JFlash
T4D5C 000:018.809   TELNET listener socket opened on port 19021
T4D5C 000:018.890   WEBSRV Starting webserver
T4D5C 000:019.010   WEBSRV Webserver running on local port 19080
T4D5C 000:022.598 - 13.918ms returns "O.K."
T4D5C 000:022.628 JLINK_GetEmuCaps()
T4D5C 000:022.639 - 0.014ms returns 0xB9FF7BBF
T4D5C 000:022.648 JLINK_TIF_GetAvailable(...)
T4D5C 000:022.824 - 0.179ms
T4D5C 000:022.833 JLINK_SetErrorOutHandler(...)
T4D5C 000:022.839 - 0.007ms
T4D5C 000:022.856 JLINK_ExecCommand("ProjectFile = "C:\Users\JIJUN001\Desktop\backup\D3_A32FB_MCU\02_App\Prj\JLinkSettings.ini"", ...). 
T4D5C 000:029.774   Ref file found at: D:\MDK\keil_v5\ARM\Segger\JLinkDevices.ref
T4D5C 000:029.820   XML referenced by ref file: D:\Jlink\JLinkDevices.xml
T4D5C 000:030.220   D:\Jlink\JLinkDevices.xml evaluated successfully.
T4D5C 000:035.242 - 12.392ms returns 0x00
T4D5C 000:038.748 JLINK_ExecCommand("Device = GD32E503RE", ...). 
T4D5C 000:042.174   Device "GD32E503RE" selected.
T4D5C 000:042.432 - 3.669ms returns 0x00
T4D5C 000:042.443 JLINK_ExecCommand("DisableConnectionTimeout", ...). 
T4D5C 000:042.450 - 0.003ms returns 0x01
T4D5C 000:042.457 JLINK_GetHardwareVersion()
T4D5C 000:042.463 - 0.007ms returns 92000
T4D5C 000:042.469 JLINK_GetDLLVersion()
T4D5C 000:042.474 - 0.007ms returns 75400
T4D5C 000:042.479 JLINK_GetOEMString(...)
T4D5C 000:042.485 JLINK_GetFirmwareString(...)
T4D5C 000:042.490 - 0.007ms
T4D5C 000:047.934 JLINK_GetDLLVersion()
T4D5C 000:047.950 - 0.019ms returns 75400
T4D5C 000:047.957 JLINK_GetCompileDateTime()
T4D5C 000:047.962 - 0.008ms
T4D5C 000:049.795 JLINK_GetFirmwareString(...)
T4D5C 000:049.810 - 0.017ms
T4D5C 000:051.542 JLINK_GetHardwareVersion()
T4D5C 000:051.555 - 0.016ms returns 92000
T4D5C 000:053.349 JLINK_GetSN()
T4D5C 000:053.364 - 0.017ms returns -1
T4D5C 000:053.371 JLINK_GetOEMString(...)
T4D5C 000:059.105 JLINK_TIF_Select(JLINKARM_TIF_SWD)
T4D5C 000:059.783 - 0.683ms returns 0x00
T4D5C 000:059.793 JLINK_HasError()
T4D5C 000:059.808 JLINK_SetSpeed(5000)
T4D5C 000:059.886 - 0.081ms
T4D5C 000:059.894 JLINK_GetId()
T4D5C 000:062.268   Found SW-DP with ID 0x0BE12477
T4D5C 000:066.280   DPIDR: 0x0BE12477
T4D5C 000:067.979   Scanning AP map to find all available APs
T4D5C 000:070.252   AP[1]: Stopped AP scan as end of AP map has been reached
T4D5C 000:072.484   AP[0]: AHB-AP (IDR: 0x14770015)
T4D5C 000:074.187   Iterating through AP map to find AHB-AP to use
T4D5C 000:076.690   AP[0]: Core found
T4D5C 000:078.549   AP[0]: AHB-AP ROM base: 0xE00FE000
T4D5C 000:080.720   CPUID register: 0x410FD214. Implementer code: 0x41 (ARM)
T4D5C 000:082.433   Feature set: Mainline
T4D5C 000:084.182   Found Cortex-M33 r0p4, Little endian.
T4D5C 000:185.946   -- Max. mem block: 0x00010E60
T4D5C 000:186.906   CPU_ReadMem(4 bytes @ 0xE000EDF0)
T4D5C 000:187.355   CPU_WriteMem(4 bytes @ 0xE000EDF0)
T4D5C 000:187.757   CPU_ReadMem(4 bytes @ 0xE0002000)
T4D5C 000:195.575   FPUnit: 8 code (BP) slots and 0 literal slots
T4D5C 000:195.633   CPU_ReadMem(4 bytes @ 0xE000EDFC)
T4D5C 000:196.194   CPU_WriteMem(4 bytes @ 0xE000EDFC)
T4D5C 000:196.679   CPU_ReadMem(4 bytes @ 0xE0001000)
T4D5C 000:197.119   CPU_ReadMem(4 bytes @ 0xE0001000)
T4D5C 000:197.495   CPU_ReadMem(4 bytes @ 0xE0001028)
T4D5C 000:197.849   CPU_ReadMem(4 bytes @ 0xE0001038)
T4D5C 000:198.154   CPU_ReadMem(4 bytes @ 0xE0001048)
T4D5C 000:198.436   CPU_ReadMem(4 bytes @ 0xE0001058)
T4D5C 000:198.792   CPU_WriteMem(4 bytes @ 0xE0001000)
T4D5C 000:199.084   CPU_ReadMem(4 bytes @ 0xE000ED88)
T4D5C 000:199.408   CPU_WriteMem(4 bytes @ 0xE000ED88)
T4D5C 000:199.691   CPU_ReadMem(4 bytes @ 0xE000ED88)
T4D5C 000:200.012   CPU_WriteMem(4 bytes @ 0xE000ED88)
T4D5C 000:200.316   CPU_ReadMem(4 bytes @ 0xE000EFB8)
T4D5C 000:204.839   Security extension: not implemented
T4D5C 000:207.967   CoreSight components:
T4D5C 000:211.480   ROMTbl[0] @ E00FE000
T4D5C 000:211.522   CPU_ReadMem(64 bytes @ 0xE00FE000)
T4D5C 000:212.086   CPU_ReadMem(32 bytes @ 0xE00FFFE0)
T4D5C 000:216.335   ROMTbl[0][0]: E00FF000, CID: B105100D, PID: 000BB4C9 ROM Table
T4D5C 000:218.731   ROMTbl[1] @ E00FF000
T4D5C 000:218.752   CPU_ReadMem(64 bytes @ 0xE00FF000)
T4D5C 000:219.318   CPU_ReadMem(32 bytes @ 0xE000EFE0)
T4D5C 000:219.770   CPU_ReadMem(4 bytes @ 0xE000EFBC)
T4D5C 000:220.004   CPU_ReadMem(4 bytes @ 0xE000EFCC)
T4D5C 000:222.154   ROMTbl[1][0]: E000E000, CID: B105900D, PID: 000BBD21 Cortex-M33
T4D5C 000:222.174   CPU_ReadMem(32 bytes @ 0xE0001FE0)
T4D5C 000:222.586   CPU_ReadMem(4 bytes @ 0xE0001FBC)
T4D5C 000:222.900   CPU_ReadMem(4 bytes @ 0xE0001FCC)
T4D5C 000:225.233   ROMTbl[1][1]: E0001000, CID: B105900D, PID: 000BBD21 DWT
T4D5C 000:225.252   CPU_ReadMem(32 bytes @ 0xE0002FE0)
T4D5C 000:225.636   CPU_ReadMem(4 bytes @ 0xE0002FBC)
T4D5C 000:225.914   CPU_ReadMem(4 bytes @ 0xE0002FCC)
T4D5C 000:228.005   ROMTbl[1][2]: E0002000, CID: B105900D, PID: 000BBD21 FPB
T4D5C 000:228.025   CPU_ReadMem(32 bytes @ 0xE0000FE0)
T4D5C 000:228.394   CPU_ReadMem(4 bytes @ 0xE0000FBC)
T4D5C 000:228.663   CPU_ReadMem(4 bytes @ 0xE0000FCC)
T4D5C 000:230.655   ROMTbl[1][3]: E0000000, CID: B105900D, PID: 000BBD21 ITM
T4D5C 000:230.673   CPU_ReadMem(32 bytes @ 0xE0040FE0)
T4D5C 000:231.071   CPU_ReadMem(4 bytes @ 0xE0040FBC)
T4D5C 000:231.437   CPU_ReadMem(4 bytes @ 0xE0040FCC)
T4D5C 000:233.430   ROMTbl[0][1]: E0040000, CID: B105900D, PID: 000BBD21 Cortex-M33
T4D5C 000:233.678 - 173.788ms returns 0x0BE12477
T4D5C 000:233.692 JLINK_GetDLLVersion()
T4D5C 000:233.698 - 0.007ms returns 75400
T4D5C 000:233.708 JLINK_CORE_GetFound()
T4D5C 000:233.714 - 0.007ms returns 0xE0200FF
T4D5C 000:233.749 JLINK_GetDebugInfo(0x100 = JLINKARM_ROM_TABLE_ADDR_INDEX)
T4D5C 000:233.760   Value=0xE00FE000
T4D5C 000:233.768 - 0.021ms returns 0
T4D5C 000:235.524 JLINK_GetDebugInfo(0x100 = JLINKARM_ROM_TABLE_ADDR_INDEX)
T4D5C 000:235.540   Value=0xE00FE000
T4D5C 000:235.547 - 0.025ms returns 0
T4D5C 000:235.553 JLINK_GetDebugInfo(0x101 = JLINKARM_DEBUG_INFO_ETM_ADDR_INDEX)
T4D5C 000:235.559   Value=0x00000000
T4D5C 000:235.566 - 0.014ms returns 0
T4D5C 000:235.581 JLINK_ReadMemEx(0xE0041FF0, 0x10 Bytes, Flags = 0x02000004)
T4D5C 000:235.606   CPU_ReadMem(16 bytes @ 0xE0041FF0)
T4D5C 000:235.913   Data:  00 00 00 00 00 00 00 00 00 00 00 00 00 00 00 00
T4D5C 000:235.921 - 0.342ms returns 16 (0x10)
T4D5C 000:235.928 JLINK_GetDebugInfo(0x102 = JLINKARM_DEBUG_INFO_MTB_ADDR_INDEX)
T4D5C 000:235.933   Value=0x00000000
T4D5C 000:235.940 - 0.015ms returns 0
T4D5C 000:235.946 JLINK_GetDebugInfo(0x103 = JLINKARM_DEBUG_INFO_TPIU_ADDR_INDEX)
T4D5C 000:235.951   Value=0x00000000
T4D5C 000:235.958 - 0.014ms returns 0
T4D5C 000:235.964 JLINK_ReadMemEx(0xE0040FF0, 0x10 Bytes, Flags = 0x02000004)
T4D5C 000:235.971   CPU_ReadMem(16 bytes @ 0xE0040FF0)
T4D5C 000:236.307   Data:  0D 00 00 00 90 00 00 00 05 00 00 00 B1 00 00 00
T4D5C 000:236.317 - 0.355ms returns 16 (0x10)
T4D5C 000:236.323 JLINK_GetDebugInfo(0x104 = JLINKARM_DEBUG_INFO_ITM_ADDR_INDEX)
T4D5C 000:236.328   Value=0xE0000000
T4D5C 000:236.335 - 0.014ms returns 0
T4D5C 000:236.341 JLINK_GetDebugInfo(0x105 = JLINKARM_DEBUG_INFO_DWT_ADDR_INDEX)
T4D5C 000:236.346   Value=0xE0001000
T4D5C 000:236.354 - 0.014ms returns 0
T4D5C 000:236.359 JLINK_GetDebugInfo(0x106 = JLINKARM_DEBUG_INFO_FPB_ADDR_INDEX)
T4D5C 000:236.364   Value=0xE0002000
T4D5C 000:236.371 - 0.014ms returns 0
T4D5C 000:236.377 JLINK_GetDebugInfo(0x107 = JLINKARM_DEBUG_INFO_NVIC_ADDR_INDEX)
T4D5C 000:236.420   Value=0xE000E000
T4D5C 000:236.429 - 0.054ms returns 0
T4D5C 000:236.435 JLINK_GetDebugInfo(0x10C = JLINKARM_DEBUG_INFO_DBG_ADDR_INDEX)
T4D5C 000:236.440   Value=0xE000EDF0
T4D5C 000:236.448 - 0.015ms returns 0
T4D5C 000:236.453 JLINK_GetDebugInfo(0x01 = Unknown)
T4D5C 000:236.459   Value=0x00000001
T4D5C 000:236.466 - 0.014ms returns 0
T4D5C 000:236.471 JLINK_ReadMemU32(0xE000ED00, 0x1 Items)
T4D5C 000:236.480   CPU_ReadMem(4 bytes @ 0xE000ED00)
T4D5C 000:236.776   Data:  14 D2 0F 41
T4D5C 000:236.785   Debug reg: CPUID
T4D5C 000:236.792 - 0.340ms returns 1 (0x1)
T4D5C 000:236.824 JLINK_GetDebugInfo(0x10F = JLINKARM_DEBUG_INFO_HAS_CORTEX_M_SECURITY_EXT_INDEX)
T4D5C 000:236.829   Value=0x00000000
T4D5C 000:236.837 - 0.015ms returns 0
T4D5C 000:236.843 JLINK_HasError()
T4D5C 000:236.849 JLINK_SetResetType(JLINKARM_CM3_RESET_TYPE_NORMAL)
T4D5C 000:236.855 - 0.007ms returns JLINKARM_CM3_RESET_TYPE_NORMAL
T4D5C 000:236.861 JLINK_Reset()
T4D5C 000:236.875   CPU is running
T4D5C 000:236.884   CPU_WriteMem(4 bytes @ 0xE000EDF0)
T4D5C 000:237.161   CPU_ReadMem(4 bytes @ 0xE000ED44)
T4D5C 000:237.355   CPU is running
T4D5C 000:237.363   CPU_WriteMem(4 bytes @ 0xE000EDFC)
T4D5C 000:239.363   Reset: Halt core after reset via DEMCR.VC_CORERESET.
T4D5C 000:241.401   Reset: Reset device via AIRCR.SYSRESETREQ.
T4D5C 000:241.420   CPU is running
T4D5C 000:241.429   CPU_WriteMem(4 bytes @ 0xE000ED0C)
T4D5C 000:294.569   CPU_ReadMem(4 bytes @ 0xE000EDF0)
T4D5C 000:295.128   CPU_ReadMem(4 bytes @ 0xE000EDF0)
T4D5C 000:295.585   CPU is running
T4D5C 000:295.628   CPU_WriteMem(4 bytes @ 0xE000EDF0)
T4D5C 000:296.104   CPU is running
T4D5C 000:296.134   CPU_WriteMem(4 bytes @ 0xE000EDFC)
T4D5C 000:302.671   CPU_ReadMem(4 bytes @ 0xE000EDF0)
T4D5C 000:305.653   CPU_ReadMem(4 bytes @ 0xE000EE08)
T4D5C 000:306.196   CPU_WriteMem(4 bytes @ 0xE0002000)
T4D5C 000:306.684   CPU_ReadMem(4 bytes @ 0xE000EDFC)
T4D5C 000:307.149   CPU_ReadMem(4 bytes @ 0xE0001000)
T4D5C 000:307.613   CPU_ReadMem(4 bytes @ 0xE000EE08)
T4D5C 000:308.232 - 71.444ms
T4D5C 000:308.358 JLINK_Halt()
T4D5C 000:308.387 - 0.041ms returns 0x00
T4D5C 000:308.419 JLINK_ReadMemU32(0xE000EDF0, 0x1 Items)
T4D5C 000:308.474   CPU_ReadMem(4 bytes @ 0xE000EDF0)
T4D5C 000:308.956   Data:  03 00 03 00
T4D5C 000:309.013   Debug reg: DHCSR
T4D5C 000:309.046 - 0.638ms returns 1 (0x1)
T4D5C 000:309.187 JLINK_WriteU32_64(0xE000EDF0, 0xA05F0003)
T4D5C 000:309.219   Debug reg: DHCSR
T4D5C 000:310.134   CPU_WriteMem(4 bytes @ 0xE000EDF0)
T4D5C 000:310.611 - 1.460ms returns 0 (0x00000000)
T4D5C 000:310.667 JLINK_WriteU32_64(0xE000EDFC, 0x01000000)
T4D5C 000:310.692   Debug reg: DEMCR
T4D5C 000:310.741   CPU_WriteMem(4 bytes @ 0xE000EDFC)
T4D5C 000:311.110 - 0.454ms returns 0 (0x00000000)
T4D5C 000:330.688 JLINK_GetHWStatus(...)
T4D5C 000:330.915 - 0.233ms returns 0
T4D5C 000:337.380 JLINK_GetNumBPUnits(Type = 0xFFFFFF00)
T4D5C 000:337.403 - 0.025ms returns 0x08
T4D5C 000:337.409 JLINK_GetNumBPUnits(Type = 0xF0)
T4D5C 000:337.414 - 0.007ms returns 0x2000
T4D5C 000:337.420 JLINK_GetNumWPUnits()
T4D5C 000:337.426 - 0.008ms returns 4
T4D5C 000:343.303 JLINK_GetSpeed()
T4D5C 000:343.325 - 0.026ms returns 4000
T4D5C 000:346.595 JLINK_ReadMemU32(0xE000E004, 0x1 Items)
T4D5C 000:346.624   CPU_ReadMem(4 bytes @ 0xE000E004)
T4D5C 000:346.919   Data:  02 00 00 00
T4D5C 000:346.928 - 0.335ms returns 1 (0x1)
T4D5C 000:346.936 JLINK_ReadMemU32(0xE000E004, 0x1 Items)
T4D5C 000:346.944   CPU_ReadMem(4 bytes @ 0xE000E004)
T4D5C 000:347.173   Data:  02 00 00 00
T4D5C 000:347.181 - 0.247ms returns 1 (0x1)
T4D5C 000:347.188 JLINK_WriteMemEx(0xE0001000, 0x0000001C Bytes, Flags = 0x02000004)
T4D5C 000:347.193   Data:  01 00 00 00 00 00 00 00 00 00 00 00 00 00 00 00 ...
T4D5C 000:347.206   CPU_WriteMem(28 bytes @ 0xE0001000)
T4D5C 000:347.576 - 0.401ms returns 0x1C
T4D5C 000:347.596 JLINK_Halt()
T4D5C 000:347.601 - 0.007ms returns 0x00
T4D5C 000:347.607 JLINK_IsHalted()
T4D5C 000:347.629 - 0.026ms returns TRUE
T4D5C 000:349.305 JLINK_WriteMem(0x20000000, 0x1F4 Bytes, ...)
T4D5C 000:349.316   Data:  00 BE 0A E0 0D 78 2D 06 68 40 08 24 40 00 00 D3 ...
T4D5C 000:349.497   CPU_WriteMem(500 bytes @ 0x20000000)
T4D5C 000:352.089 - 2.787ms returns 0x1F4
T4D5C 000:352.110 JLINK_HasError()
T4D5C 000:352.117 JLINK_WriteReg(R0, 0x08000000)
T4D5C 000:352.125   CPU_ReadMem(4 bytes @ 0xE000EE08)
T4D5C 000:352.385 - 0.270ms returns 0
T4D5C 000:352.392 JLINK_WriteReg(R1, 0x00B71B00)
T4D5C 000:352.398 - 0.008ms returns 0
T4D5C 000:352.404 JLINK_WriteReg(R2, 0x00000001)
T4D5C 000:352.409 - 0.007ms returns 0
T4D5C 000:352.415 JLINK_WriteReg(R3, 0x00000000)
T4D5C 000:352.420 - 0.007ms returns 0
T4D5C 000:352.426 JLINK_WriteReg(R4, 0x00000000)
T4D5C 000:352.431 - 0.008ms returns 0
T4D5C 000:352.437 JLINK_WriteReg(R5, 0x00000000)
T4D5C 000:352.442 - 0.007ms returns 0
T4D5C 000:352.448 JLINK_WriteReg(R6, 0x00000000)
T4D5C 000:352.454 - 0.007ms returns 0
T4D5C 000:352.459 JLINK_WriteReg(R7, 0x00000000)
T4D5C 000:352.465 - 0.008ms returns 0
T4D5C 000:352.470 JLINK_WriteReg(R8, 0x00000000)
T4D5C 000:352.484 - 0.015ms returns 0
T4D5C 000:352.490 JLINK_WriteReg(R9, 0x200001F0)
T4D5C 000:352.495 - 0.007ms returns 0
T4D5C 000:352.501 JLINK_WriteReg(R10, 0x00000000)
T4D5C 000:352.506 - 0.008ms returns 0
T4D5C 000:352.512 JLINK_WriteReg(R11, 0x00000000)
T4D5C 000:352.518 - 0.007ms returns 0
T4D5C 000:352.523 JLINK_WriteReg(R12, 0x00000000)
T4D5C 000:352.528 - 0.007ms returns 0
T4D5C 000:352.534 JLINK_WriteReg(R13 (SP), 0x20001000)
T4D5C 000:352.540 - 0.008ms returns 0
T4D5C 000:352.546 JLINK_WriteReg(R14, 0x20000001)
T4D5C 000:352.552 - 0.008ms returns 0
T4D5C 000:352.562 JLINK_WriteReg(R15 (PC), 0x20000038)
T4D5C 000:352.570 - 0.010ms returns 0
T4D5C 000:352.576 JLINK_WriteReg(XPSR, 0x01000000)
T4D5C 000:352.582 - 0.008ms returns 0
T4D5C 000:352.587 JLINK_WriteReg(MSP, 0x20001000)
T4D5C 000:352.593 - 0.008ms returns 0
T4D5C 000:352.598 JLINK_WriteReg(PSP, 0x20001000)
T4D5C 000:352.604 - 0.008ms returns 0
T4D5C 000:352.610 JLINK_WriteReg(CFBP, 0x00000000)
T4D5C 000:352.615 - 0.008ms returns 0
T4D5C 000:352.621 JLINK_SetBPEx(Addr = 0x20000000, Type = 0xFFFFFFF2)
T4D5C 000:352.627 - 0.008ms returns 0x00000001
T4D5C 000:352.633 JLINK_Go()
T4D5C 000:352.640   CPU_WriteMem(4 bytes @ 0xE0002000)
T4D5C 000:353.014   CPU_ReadMem(4 bytes @ 0xE0001000)
T4D5C 000:353.293   CPU_WriteMem(4 bytes @ 0xE0002008)
T4D5C 000:353.308   CPU_WriteMem(4 bytes @ 0xE000200C)
T4D5C 000:353.316   CPU_WriteMem(4 bytes @ 0xE0002010)
T4D5C 000:353.324   CPU_WriteMem(4 bytes @ 0xE0002014)
T4D5C 000:353.331   CPU_WriteMem(4 bytes @ 0xE0002018)
T4D5C 000:353.339   CPU_WriteMem(4 bytes @ 0xE000201C)
T4D5C 000:353.346   CPU_WriteMem(4 bytes @ 0xE0002020)
T4D5C 000:353.354   CPU_WriteMem(4 bytes @ 0xE0002024)
T4D5C 000:354.688   CPU_WriteMem(4 bytes @ 0xE0001004)
T4D5C 000:356.998 - 4.368ms
T4D5C 000:357.006 JLINK_IsHalted()
T4D5C 000:359.044 - 2.051ms returns TRUE
T4D5C 000:359.067 JLINK_ReadReg(R15 (PC))
T4D5C 000:359.077   CPU_ReadMem(4 bytes @ 0xE000EE08)
T4D5C 000:359.347 - 0.290ms returns 0x20000000
T4D5C 000:359.366 JLINK_ClrBPEx(BPHandle = 0x00000001)
T4D5C 000:359.374 - 0.010ms returns 0x00
T4D5C 000:359.403 JLINK_ReadReg(R0)
T4D5C 000:359.411 - 0.010ms returns 0x00000000
T4D5C 000:359.772 JLINK_HasError()
T4D5C 000:359.785 JLINK_WriteReg(R0, 0x08004000)
T4D5C 000:359.795 - 0.011ms returns 0
T4D5C 000:359.801 JLINK_WriteReg(R1, 0x00002000)
T4D5C 000:359.806 - 0.008ms returns 0
T4D5C 000:359.812 JLINK_WriteReg(R2, 0x000000FF)
T4D5C 000:359.818 - 0.008ms returns 0
T4D5C 000:359.824 JLINK_WriteReg(R3, 0x00000000)
T4D5C 000:359.829 - 0.008ms returns 0
T4D5C 000:359.837 JLINK_WriteReg(R4, 0x00000000)
T4D5C 000:359.842 - 0.007ms returns 0
T4D5C 000:359.848 JLINK_WriteReg(R5, 0x00000000)
T4D5C 000:359.853 - 0.007ms returns 0
T4D5C 000:359.859 JLINK_WriteReg(R6, 0x00000000)
T4D5C 000:359.865 - 0.007ms returns 0
T4D5C 000:359.870 JLINK_WriteReg(R7, 0x00000000)
T4D5C 000:359.876 - 0.007ms returns 0
T4D5C 000:359.885 JLINK_WriteReg(R8, 0x00000000)
T4D5C 000:359.892 - 0.009ms returns 0
T4D5C 000:359.898 JLINK_WriteReg(R9, 0x200001F0)
T4D5C 000:359.903 - 0.008ms returns 0
T4D5C 000:359.909 JLINK_WriteReg(R10, 0x00000000)
T4D5C 000:359.914 - 0.008ms returns 0
T4D5C 000:359.920 JLINK_WriteReg(R11, 0x00000000)
T4D5C 000:359.926 - 0.008ms returns 0
T4D5C 000:359.931 JLINK_WriteReg(R12, 0x00000000)
T4D5C 000:359.937 - 0.008ms returns 0
T4D5C 000:359.943 JLINK_WriteReg(R13 (SP), 0x20001000)
T4D5C 000:359.949 - 0.008ms returns 0
T4D5C 000:359.955 JLINK_WriteReg(R14, 0x20000001)
T4D5C 000:359.960 - 0.008ms returns 0
T4D5C 000:359.966 JLINK_WriteReg(R15 (PC), 0x20000020)
T4D5C 000:359.972 - 0.012ms returns 0
T4D5C 000:359.983 JLINK_WriteReg(XPSR, 0x01000000)
T4D5C 000:359.989 - 0.008ms returns 0
T4D5C 000:359.995 JLINK_WriteReg(MSP, 0x20001000)
T4D5C 000:360.000 - 0.008ms returns 0
T4D5C 000:360.006 JLINK_WriteReg(PSP, 0x20001000)
T4D5C 000:360.011 - 0.008ms returns 0
T4D5C 000:360.018 JLINK_WriteReg(CFBP, 0x00000000)
T4D5C 000:360.023 - 0.008ms returns 0
T4D5C 000:360.029 JLINK_SetBPEx(Addr = 0x20000000, Type = 0xFFFFFFF2)
T4D5C 000:360.035 - 0.008ms returns 0x00000002
T4D5C 000:360.041 JLINK_Go()
T4D5C 000:360.048   CPU_WriteMem(4 bytes @ 0xE0002000)
T4D5C 000:360.329   CPU_ReadMem(4 bytes @ 0xE0001000)
T4D5C 000:362.603 - 2.565ms
T4D5C 000:362.611 JLINK_IsHalted()
T4D5C 000:364.760 - 2.153ms returns TRUE
T4D5C 000:364.770 JLINK_ReadReg(R15 (PC))
T4D5C 000:364.779   CPU_ReadMem(4 bytes @ 0xE000EE08)
T4D5C 000:365.001 - 0.239ms returns 0x20000000
T4D5C 000:365.013 JLINK_ClrBPEx(BPHandle = 0x00000002)
T4D5C 000:365.020 - 0.008ms returns 0x00
T4D5C 000:365.026 JLINK_ReadReg(R0)
T4D5C 000:365.032 - 0.008ms returns 0x00000001
T4D5C 000:365.039 JLINK_HasError()
T4D5C 000:365.045 JLINK_WriteReg(R0, 0x08004000)
T4D5C 000:365.051 - 0.009ms returns 0
T4D5C 000:365.057 JLINK_WriteReg(R1, 0x00002000)
T4D5C 000:365.063 - 0.008ms returns 0
T4D5C 000:365.069 JLINK_WriteReg(R2, 0x000000FF)
T4D5C 000:365.075 - 0.008ms returns 0
T4D5C 000:365.081 JLINK_WriteReg(R3, 0x00000000)
T4D5C 000:365.087 - 0.008ms returns 0
T4D5C 000:365.093 JLINK_WriteReg(R4, 0x00000000)
T4D5C 000:365.099 - 0.008ms returns 0
T4D5C 000:365.105 JLINK_WriteReg(R5, 0x00000000)
T4D5C 000:365.111 - 0.008ms returns 0
T4D5C 000:365.117 JLINK_WriteReg(R6, 0x00000000)
T4D5C 000:365.123 - 0.008ms returns 0
T4D5C 000:365.129 JLINK_WriteReg(R7, 0x00000000)
T4D5C 000:365.135 - 0.008ms returns 0
T4D5C 000:365.141 JLINK_WriteReg(R8, 0x00000000)
T4D5C 000:365.147 - 0.008ms returns 0
T4D5C 000:365.153 JLINK_WriteReg(R9, 0x200001F0)
T4D5C 000:365.159 - 0.008ms returns 0
T4D5C 000:365.165 JLINK_WriteReg(R10, 0x00000000)
T4D5C 000:365.171 - 0.008ms returns 0
T4D5C 000:365.177 JLINK_WriteReg(R11, 0x00000000)
T4D5C 000:365.182 - 0.008ms returns 0
T4D5C 000:365.189 JLINK_WriteReg(R12, 0x00000000)
T4D5C 000:365.194 - 0.008ms returns 0
T4D5C 000:365.201 JLINK_WriteReg(R13 (SP), 0x20001000)
T4D5C 000:365.207 - 0.009ms returns 0
T4D5C 000:365.213 JLINK_WriteReg(R14, 0x20000001)
T4D5C 000:365.219 - 0.008ms returns 0
T4D5C 000:365.225 JLINK_WriteReg(R15 (PC), 0x20000110)
T4D5C 000:365.231 - 0.008ms returns 0
T4D5C 000:365.238 JLINK_WriteReg(XPSR, 0x01000000)
T4D5C 000:365.244 - 0.009ms returns 0
T4D5C 000:365.251 JLINK_WriteReg(MSP, 0x20001000)
T4D5C 000:365.257 - 0.009ms returns 0
T4D5C 000:365.263 JLINK_WriteReg(PSP, 0x20001000)
T4D5C 000:365.270 - 0.009ms returns 0
T4D5C 000:365.276 JLINK_WriteReg(CFBP, 0x00000000)
T4D5C 000:365.282 - 0.009ms returns 0
T4D5C 000:365.289 JLINK_SetBPEx(Addr = 0x20000000, Type = 0xFFFFFFF2)
T4D5C 000:365.296 - 0.009ms returns 0x00000003
T4D5C 000:365.303 JLINK_Go()
T4D5C 000:365.310   CPU_WriteMem(4 bytes @ 0xE0002000)
T4D5C 000:365.599   CPU_ReadMem(4 bytes @ 0xE0001000)
T4D5C 000:367.775 - 2.476ms
T4D5C 000:367.784 JLINK_IsHalted()
T4D5C 000:368.053 - 0.278ms returns FALSE
T4D5C 000:368.069 JLINK_HasError()
T4D5C 000:379.767 JLINK_IsHalted()
T4D5C 000:381.941 - 2.187ms returns TRUE
T4D5C 000:381.966 JLINK_ReadReg(R15 (PC))
T4D5C 000:381.981   CPU_ReadMem(4 bytes @ 0xE000EE08)
T4D5C 000:382.291 - 0.331ms returns 0x20000000
T4D5C 000:382.304 JLINK_ClrBPEx(BPHandle = 0x00000003)
T4D5C 000:382.333 - 0.033ms returns 0x00
T4D5C 000:382.343 JLINK_ReadReg(R0)
T4D5C 000:382.352 - 0.013ms returns 0x00000000
T4D5C 000:382.850 JLINK_HasError()
T4D5C 000:382.871 JLINK_WriteReg(R0, 0x08006000)
T4D5C 000:382.887 - 0.019ms returns 0
T4D5C 000:382.897 JLINK_WriteReg(R1, 0x00002000)
T4D5C 000:382.907 - 0.014ms returns 0
T4D5C 000:382.917 JLINK_WriteReg(R2, 0x000000FF)
T4D5C 000:382.926 - 0.013ms returns 0
T4D5C 000:382.936 JLINK_WriteReg(R3, 0x00000000)
T4D5C 000:382.945 - 0.013ms returns 0
T4D5C 000:382.955 JLINK_WriteReg(R4, 0x00000000)
T4D5C 000:382.964 - 0.013ms returns 0
T4D5C 000:382.974 JLINK_WriteReg(R5, 0x00000000)
T4D5C 000:382.983 - 0.013ms returns 0
T4D5C 000:382.992 JLINK_WriteReg(R6, 0x00000000)
T4D5C 000:383.001 - 0.013ms returns 0
T4D5C 000:383.011 JLINK_WriteReg(R7, 0x00000000)
T4D5C 000:383.020 - 0.013ms returns 0
T4D5C 000:383.030 JLINK_WriteReg(R8, 0x00000000)
T4D5C 000:383.039 - 0.013ms returns 0
T4D5C 000:383.049 JLINK_WriteReg(R9, 0x200001F0)
T4D5C 000:383.058 - 0.013ms returns 0
T4D5C 000:383.067 JLINK_WriteReg(R10, 0x00000000)
T4D5C 000:383.076 - 0.013ms returns 0
T4D5C 000:383.086 JLINK_WriteReg(R11, 0x00000000)
T4D5C 000:383.100 - 0.018ms returns 0
T4D5C 000:383.109 JLINK_WriteReg(R12, 0x00000000)
T4D5C 000:383.118 - 0.013ms returns 0
T4D5C 000:383.128 JLINK_WriteReg(R13 (SP), 0x20001000)
T4D5C 000:383.138 - 0.014ms returns 0
T4D5C 000:383.147 JLINK_WriteReg(R14, 0x20000001)
T4D5C 000:383.156 - 0.013ms returns 0
T4D5C 000:383.166 JLINK_WriteReg(R15 (PC), 0x20000020)
T4D5C 000:383.175 - 0.013ms returns 0
T4D5C 000:383.185 JLINK_WriteReg(XPSR, 0x01000000)
T4D5C 000:383.194 - 0.013ms returns 0
T4D5C 000:383.204 JLINK_WriteReg(MSP, 0x20001000)
T4D5C 000:383.213 - 0.013ms returns 0
T4D5C 000:383.223 JLINK_WriteReg(PSP, 0x20001000)
T4D5C 000:383.232 - 0.013ms returns 0
T4D5C 000:383.241 JLINK_WriteReg(CFBP, 0x00000000)
T4D5C 000:383.253 - 0.016ms returns 0
T4D5C 000:383.264 JLINK_SetBPEx(Addr = 0x20000000, Type = 0xFFFFFFF2)
T4D5C 000:383.274 - 0.014ms returns 0x00000004
T4D5C 000:383.284 JLINK_Go()
T4D5C 000:383.296   CPU_WriteMem(4 bytes @ 0xE0002000)
T4D5C 000:383.607   CPU_ReadMem(4 bytes @ 0xE0001000)
T4D5C 000:385.852 - 2.583ms
T4D5C 000:385.883 JLINK_IsHalted()
T4D5C 000:387.924 - 2.056ms returns TRUE
T4D5C 000:387.955 JLINK_ReadReg(R15 (PC))
T4D5C 000:387.969   CPU_ReadMem(4 bytes @ 0xE000EE08)
T4D5C 000:388.255 - 0.306ms returns 0x20000000
T4D5C 000:388.271 JLINK_ClrBPEx(BPHandle = 0x00000004)
T4D5C 000:388.283 - 0.015ms returns 0x00
T4D5C 000:388.331 JLINK_ReadReg(R0)
T4D5C 000:388.343 - 0.016ms returns 0x00000001
T4D5C 000:388.354 JLINK_HasError()
T4D5C 000:388.365 JLINK_WriteReg(R0, 0x08006000)
T4D5C 000:388.375 - 0.015ms returns 0
T4D5C 000:388.387 JLINK_WriteReg(R1, 0x00002000)
T4D5C 000:388.396 - 0.015ms returns 0
T4D5C 000:388.408 JLINK_WriteReg(R2, 0x000000FF)
T4D5C 000:388.418 - 0.014ms returns 0
T4D5C 000:388.428 JLINK_WriteReg(R3, 0x00000000)
T4D5C 000:388.438 - 0.019ms returns 0
T4D5C 000:388.454 JLINK_WriteReg(R4, 0x00000000)
T4D5C 000:388.463 - 0.014ms returns 0
T4D5C 000:388.474 JLINK_WriteReg(R5, 0x00000000)
T4D5C 000:388.483 - 0.014ms returns 0
T4D5C 000:388.494 JLINK_WriteReg(R6, 0x00000000)
T4D5C 000:388.503 - 0.014ms returns 0
T4D5C 000:388.513 JLINK_WriteReg(R7, 0x00000000)
T4D5C 000:388.523 - 0.014ms returns 0
T4D5C 000:388.533 JLINK_WriteReg(R8, 0x00000000)
T4D5C 000:388.543 - 0.014ms returns 0
T4D5C 000:388.553 JLINK_WriteReg(R9, 0x200001F0)
T4D5C 000:388.563 - 0.014ms returns 0
T4D5C 000:388.573 JLINK_WriteReg(R10, 0x00000000)
T4D5C 000:388.583 - 0.014ms returns 0
T4D5C 000:388.593 JLINK_WriteReg(R11, 0x00000000)
T4D5C 000:388.603 - 0.014ms returns 0
T4D5C 000:388.613 JLINK_WriteReg(R12, 0x00000000)
T4D5C 000:388.623 - 0.014ms returns 0
T4D5C 000:388.633 JLINK_WriteReg(R13 (SP), 0x20001000)
T4D5C 000:388.650 - 0.022ms returns 0
T4D5C 000:388.661 JLINK_WriteReg(R14, 0x20000001)
T4D5C 000:388.671 - 0.014ms returns 0
T4D5C 000:388.681 JLINK_WriteReg(R15 (PC), 0x20000110)
T4D5C 000:388.691 - 0.014ms returns 0
T4D5C 000:388.702 JLINK_WriteReg(XPSR, 0x01000000)
T4D5C 000:388.712 - 0.014ms returns 0
T4D5C 000:388.722 JLINK_WriteReg(MSP, 0x20001000)
T4D5C 000:388.732 - 0.014ms returns 0
T4D5C 000:388.742 JLINK_WriteReg(PSP, 0x20001000)
T4D5C 000:388.752 - 0.014ms returns 0
T4D5C 000:388.762 JLINK_WriteReg(CFBP, 0x00000000)
T4D5C 000:388.772 - 0.014ms returns 0
T4D5C 000:388.782 JLINK_SetBPEx(Addr = 0x20000000, Type = 0xFFFFFFF2)
T4D5C 000:388.793 - 0.015ms returns 0x00000005
T4D5C 000:388.803 JLINK_Go()
T4D5C 000:388.815   CPU_WriteMem(4 bytes @ 0xE0002000)
T4D5C 000:389.172   CPU_ReadMem(4 bytes @ 0xE0001000)
T4D5C 000:391.545 - 2.747ms
T4D5C 000:391.558 JLINK_IsHalted()
T4D5C 000:391.928 - 0.376ms returns FALSE
T4D5C 000:391.942 JLINK_HasError()
T4D5C 000:393.371 JLINK_IsHalted()
T4D5C 000:393.667 - 0.303ms returns FALSE
T4D5C 000:393.682 JLINK_HasError()
T4D5C 000:395.498 JLINK_IsHalted()
T4D5C 000:395.814 - 0.323ms returns FALSE
T4D5C 000:395.830 JLINK_HasError()
T4D5C 000:397.647 JLINK_IsHalted()
T4D5C 000:398.038 - 0.399ms returns FALSE
T4D5C 000:398.056 JLINK_HasError()
T4D5C 000:400.180 JLINK_IsHalted()
T4D5C 000:400.703 - 0.551ms returns FALSE
T4D5C 000:400.747 JLINK_HasError()
T4D5C 000:402.706 JLINK_IsHalted()
T4D5C 000:404.986 - 2.308ms returns TRUE
T4D5C 000:405.028 JLINK_ReadReg(R15 (PC))
T4D5C 000:405.049   CPU_ReadMem(4 bytes @ 0xE000EE08)
T4D5C 000:405.439 - 0.419ms returns 0x20000000
T4D5C 000:405.456 JLINK_ClrBPEx(BPHandle = 0x00000005)
T4D5C 000:405.472 - 0.022ms returns 0x00
T4D5C 000:405.488 JLINK_ReadReg(R0)
T4D5C 000:405.508 - 0.027ms returns 0x00000000
T4D5C 000:406.300 JLINK_HasError()
T4D5C 000:406.335 JLINK_WriteReg(R0, 0x08008000)
T4D5C 000:406.358 - 0.030ms returns 0
T4D5C 000:406.376 JLINK_WriteReg(R1, 0x00002000)
T4D5C 000:406.398 - 0.028ms returns 0
T4D5C 000:406.414 JLINK_WriteReg(R2, 0x000000FF)
T4D5C 000:406.429 - 0.023ms returns 0
T4D5C 000:406.447 JLINK_WriteReg(R3, 0x00000000)
T4D5C 000:406.462 - 0.022ms returns 0
T4D5C 000:406.478 JLINK_WriteReg(R4, 0x00000000)
T4D5C 000:406.496 - 0.024ms returns 0
T4D5C 000:406.511 JLINK_WriteReg(R5, 0x00000000)
T4D5C 000:406.526 - 0.021ms returns 0
T4D5C 000:406.541 JLINK_WriteReg(R6, 0x00000000)
T4D5C 000:406.555 - 0.021ms returns 0
T4D5C 000:406.570 JLINK_WriteReg(R7, 0x00000000)
T4D5C 000:406.585 - 0.021ms returns 0
T4D5C 000:406.600 JLINK_WriteReg(R8, 0x00000000)
T4D5C 000:406.615 - 0.020ms returns 0
T4D5C 000:406.629 JLINK_WriteReg(R9, 0x200001F0)
T4D5C 000:406.644 - 0.021ms returns 0
T4D5C 000:406.659 JLINK_WriteReg(R10, 0x00000000)
T4D5C 000:406.673 - 0.021ms returns 0
T4D5C 000:406.689 JLINK_WriteReg(R11, 0x00000000)
T4D5C 000:406.703 - 0.021ms returns 0
T4D5C 000:406.718 JLINK_WriteReg(R12, 0x00000000)
T4D5C 000:406.733 - 0.021ms returns 0
T4D5C 000:406.748 JLINK_WriteReg(R13 (SP), 0x20001000)
T4D5C 000:406.764 - 0.022ms returns 0
T4D5C 000:406.779 JLINK_WriteReg(R14, 0x20000001)
T4D5C 000:406.794 - 0.021ms returns 0
T4D5C 000:406.809 JLINK_WriteReg(R15 (PC), 0x20000020)
T4D5C 000:406.824 - 0.021ms returns 0
T4D5C 000:406.839 JLINK_WriteReg(XPSR, 0x01000000)
T4D5C 000:406.853 - 0.021ms returns 0
T4D5C 000:406.869 JLINK_WriteReg(MSP, 0x20001000)
T4D5C 000:406.883 - 0.021ms returns 0
T4D5C 000:406.899 JLINK_WriteReg(PSP, 0x20001000)
T4D5C 000:406.915 - 0.022ms returns 0
T4D5C 000:406.930 JLINK_WriteReg(CFBP, 0x00000000)
T4D5C 000:406.945 - 0.021ms returns 0
T4D5C 000:406.960 JLINK_SetBPEx(Addr = 0x20000000, Type = 0xFFFFFFF2)
T4D5C 000:406.976 - 0.023ms returns 0x00000006
T4D5C 000:406.992 JLINK_Go()
T4D5C 000:407.010   CPU_WriteMem(4 bytes @ 0xE0002000)
T4D5C 000:407.323   CPU_ReadMem(4 bytes @ 0xE0001000)
T4D5C 000:409.622 - 2.639ms
T4D5C 000:409.642 JLINK_IsHalted()
T4D5C 000:411.752 - 2.118ms returns TRUE
T4D5C 000:411.777 JLINK_ReadReg(R15 (PC))
T4D5C 000:411.798   CPU_ReadMem(4 bytes @ 0xE000EE08)
T4D5C 000:412.178 - 0.409ms returns 0x20000000
T4D5C 000:412.198 JLINK_ClrBPEx(BPHandle = 0x00000006)
T4D5C 000:412.214 - 0.023ms returns 0x00
T4D5C 000:412.230 JLINK_ReadReg(R0)
T4D5C 000:412.246 - 0.023ms returns 0x00000001
T4D5C 000:412.263 JLINK_HasError()
T4D5C 000:412.279 JLINK_WriteReg(R0, 0x08008000)
T4D5C 000:412.295 - 0.023ms returns 0
T4D5C 000:412.312 JLINK_WriteReg(R1, 0x00002000)
T4D5C 000:412.329 - 0.024ms returns 0
T4D5C 000:412.346 JLINK_WriteReg(R2, 0x000000FF)
T4D5C 000:412.363 - 0.023ms returns 0
T4D5C 000:412.380 JLINK_WriteReg(R3, 0x00000000)
T4D5C 000:412.396 - 0.023ms returns 0
T4D5C 000:412.413 JLINK_WriteReg(R4, 0x00000000)
T4D5C 000:412.429 - 0.024ms returns 0
T4D5C 000:412.447 JLINK_WriteReg(R5, 0x00000000)
T4D5C 000:412.463 - 0.023ms returns 0
T4D5C 000:412.480 JLINK_WriteReg(R6, 0x00000000)
T4D5C 000:412.497 - 0.024ms returns 0
T4D5C 000:412.514 JLINK_WriteReg(R7, 0x00000000)
T4D5C 000:412.530 - 0.023ms returns 0
T4D5C 000:412.547 JLINK_WriteReg(R8, 0x00000000)
T4D5C 000:412.563 - 0.023ms returns 0
T4D5C 000:412.581 JLINK_WriteReg(R9, 0x200001F0)
T4D5C 000:412.597 - 0.023ms returns 0
T4D5C 000:412.614 JLINK_WriteReg(R10, 0x00000000)
T4D5C 000:412.630 - 0.023ms returns 0
T4D5C 000:412.647 JLINK_WriteReg(R11, 0x00000000)
T4D5C 000:412.664 - 0.024ms returns 0
T4D5C 000:412.681 JLINK_WriteReg(R12, 0x00000000)
T4D5C 000:412.698 - 0.024ms returns 0
T4D5C 000:412.715 JLINK_WriteReg(R13 (SP), 0x20001000)
T4D5C 000:412.732 - 0.024ms returns 0
T4D5C 000:412.749 JLINK_WriteReg(R14, 0x20000001)
T4D5C 000:412.766 - 0.024ms returns 0
T4D5C 000:412.783 JLINK_WriteReg(R15 (PC), 0x20000110)
T4D5C 000:412.800 - 0.024ms returns 0
T4D5C 000:412.817 JLINK_WriteReg(XPSR, 0x01000000)
T4D5C 000:412.833 - 0.023ms returns 0
T4D5C 000:412.850 JLINK_WriteReg(MSP, 0x20001000)
T4D5C 000:412.867 - 0.024ms returns 0
T4D5C 000:412.884 JLINK_WriteReg(PSP, 0x20001000)
T4D5C 000:412.901 - 0.023ms returns 0
T4D5C 000:412.917 JLINK_WriteReg(CFBP, 0x00000000)
T4D5C 000:412.934 - 0.023ms returns 0
T4D5C 000:412.951 JLINK_SetBPEx(Addr = 0x20000000, Type = 0xFFFFFFF2)
T4D5C 000:412.968 - 0.024ms returns 0x00000007
T4D5C 000:412.985 JLINK_Go()
T4D5C 000:413.004   CPU_WriteMem(4 bytes @ 0xE0002000)
T4D5C 000:413.329   CPU_ReadMem(4 bytes @ 0xE0001000)
T4D5C 000:415.645 - 2.684ms
T4D5C 000:415.694 JLINK_IsHalted()
T4D5C 000:416.055 - 0.396ms returns FALSE
T4D5C 000:416.123 JLINK_HasError()
T4D5C 000:421.798 JLINK_IsHalted()
T4D5C 000:422.224 - 0.465ms returns FALSE
T4D5C 000:422.280 JLINK_HasError()
T4D5C 000:424.445 JLINK_IsHalted()
T4D5C 000:424.813 - 0.379ms returns FALSE
T4D5C 000:424.837 JLINK_HasError()
T4D5C 000:426.006 JLINK_IsHalted()
T4D5C 000:426.334 - 0.339ms returns FALSE
T4D5C 000:426.360 JLINK_HasError()
T4D5C 000:428.153 JLINK_IsHalted()
T4D5C 000:430.426 - 2.307ms returns TRUE
T4D5C 000:430.488 JLINK_ReadReg(R15 (PC))
T4D5C 000:430.524   CPU_ReadMem(4 bytes @ 0xE000EE08)
T4D5C 000:430.879 - 0.404ms returns 0x20000000
T4D5C 000:430.911 JLINK_ClrBPEx(BPHandle = 0x00000007)
T4D5C 000:430.935 - 0.034ms returns 0x00
T4D5C 000:430.959 JLINK_ReadReg(R0)
T4D5C 000:430.983 - 0.034ms returns 0x00000000
T4D5C 000:433.630 JLINK_HasError()
T4D5C 000:433.694 JLINK_WriteReg(R0, 0x0800A000)
T4D5C 000:433.736 - 0.051ms returns 0
T4D5C 000:433.759 JLINK_WriteReg(R1, 0x00002000)
T4D5C 000:433.782 - 0.031ms returns 0
T4D5C 000:433.804 JLINK_WriteReg(R2, 0x000000FF)
T4D5C 000:433.826 - 0.031ms returns 0
T4D5C 000:433.847 JLINK_WriteReg(R3, 0x00000000)
T4D5C 000:433.868 - 0.029ms returns 0
T4D5C 000:433.888 JLINK_WriteReg(R4, 0x00000000)
T4D5C 000:433.906 - 0.028ms returns 0
T4D5C 000:433.927 JLINK_WriteReg(R5, 0x00000000)
T4D5C 000:433.946 - 0.027ms returns 0
T4D5C 000:433.966 JLINK_WriteReg(R6, 0x00000000)
T4D5C 000:433.985 - 0.027ms returns 0
T4D5C 000:434.004 JLINK_WriteReg(R7, 0x00000000)
T4D5C 000:434.023 - 0.031ms returns 0
T4D5C 000:434.047 JLINK_WriteReg(R8, 0x00000000)
T4D5C 000:434.180 - 0.141ms returns 0
T4D5C 000:434.200 JLINK_WriteReg(R9, 0x200001F0)
T4D5C 000:434.219 - 0.027ms returns 0
T4D5C 000:434.239 JLINK_WriteReg(R10, 0x00000000)
T4D5C 000:434.258 - 0.027ms returns 0
T4D5C 000:434.278 JLINK_WriteReg(R11, 0x00000000)
T4D5C 000:434.297 - 0.027ms returns 0
T4D5C 000:434.317 JLINK_WriteReg(R12, 0x00000000)
T4D5C 000:434.336 - 0.027ms returns 0
T4D5C 000:434.356 JLINK_WriteReg(R13 (SP), 0x20001000)
T4D5C 000:434.377 - 0.030ms returns 0
T4D5C 000:434.397 JLINK_WriteReg(R14, 0x20000001)
T4D5C 000:434.416 - 0.028ms returns 0
T4D5C 000:434.437 JLINK_WriteReg(R15 (PC), 0x20000020)
T4D5C 000:434.456 - 0.028ms returns 0
T4D5C 000:434.476 JLINK_WriteReg(XPSR, 0x01000000)
T4D5C 000:434.495 - 0.028ms returns 0
T4D5C 000:434.515 JLINK_WriteReg(MSP, 0x20001000)
T4D5C 000:434.534 - 0.028ms returns 0
T4D5C 000:434.554 JLINK_WriteReg(PSP, 0x20001000)
T4D5C 000:434.573 - 0.027ms returns 0
T4D5C 000:434.593 JLINK_WriteReg(CFBP, 0x00000000)
T4D5C 000:434.612 - 0.027ms returns 0
T4D5C 000:434.632 JLINK_SetBPEx(Addr = 0x20000000, Type = 0xFFFFFFF2)
T4D5C 000:434.653 - 0.030ms returns 0x00000008
T4D5C 000:434.674 JLINK_Go()
T4D5C 000:434.699   CPU_WriteMem(4 bytes @ 0xE0002000)
T4D5C 000:435.096   CPU_ReadMem(4 bytes @ 0xE0001000)
T4D5C 000:437.532 - 2.869ms
T4D5C 000:437.560 JLINK_IsHalted()
T4D5C 000:439.698 - 2.153ms returns TRUE
T4D5C 000:439.732 JLINK_ReadReg(R15 (PC))
T4D5C 000:439.757   CPU_ReadMem(4 bytes @ 0xE000EE08)
T4D5C 000:440.103 - 0.382ms returns 0x20000000
T4D5C 000:440.128 JLINK_ClrBPEx(BPHandle = 0x00000008)
T4D5C 000:440.151 - 0.031ms returns 0x00
T4D5C 000:440.174 JLINK_ReadReg(R0)
T4D5C 000:440.195 - 0.030ms returns 0x00000001
T4D5C 000:440.218 JLINK_HasError()
T4D5C 000:440.240 JLINK_WriteReg(R0, 0x0800A000)
T4D5C 000:440.262 - 0.032ms returns 0
T4D5C 000:440.285 JLINK_WriteReg(R1, 0x00002000)
T4D5C 000:440.306 - 0.030ms returns 0
T4D5C 000:440.328 JLINK_WriteReg(R2, 0x000000FF)
T4D5C 000:440.355 - 0.036ms returns 0
T4D5C 000:440.376 JLINK_WriteReg(R3, 0x00000000)
T4D5C 000:440.396 - 0.029ms returns 0
T4D5C 000:440.417 JLINK_WriteReg(R4, 0x00000000)
T4D5C 000:440.438 - 0.030ms returns 0
T4D5C 000:440.460 JLINK_WriteReg(R5, 0x00000000)
T4D5C 000:440.482 - 0.032ms returns 0
T4D5C 000:440.506 JLINK_WriteReg(R6, 0x00000000)
T4D5C 000:440.529 - 0.032ms returns 0
T4D5C 000:440.552 JLINK_WriteReg(R7, 0x00000000)
T4D5C 000:440.574 - 0.032ms returns 0
T4D5C 000:440.598 JLINK_WriteReg(R8, 0x00000000)
T4D5C 000:440.620 - 0.032ms returns 0
T4D5C 000:440.644 JLINK_WriteReg(R9, 0x200001F0)
T4D5C 000:440.666 - 0.032ms returns 0
T4D5C 000:440.689 JLINK_WriteReg(R10, 0x00000000)
T4D5C 000:440.712 - 0.032ms returns 0
T4D5C 000:440.735 JLINK_WriteReg(R11, 0x00000000)
T4D5C 000:440.758 - 0.033ms returns 0
T4D5C 000:440.781 JLINK_WriteReg(R12, 0x00000000)
T4D5C 000:440.804 - 0.032ms returns 0
T4D5C 000:440.827 JLINK_WriteReg(R13 (SP), 0x20001000)
T4D5C 000:440.850 - 0.034ms returns 0
T4D5C 000:440.874 JLINK_WriteReg(R14, 0x20000001)
T4D5C 000:440.897 - 0.033ms returns 0
T4D5C 000:440.920 JLINK_WriteReg(R15 (PC), 0x20000110)
T4D5C 000:440.943 - 0.032ms returns 0
T4D5C 000:440.966 JLINK_WriteReg(XPSR, 0x01000000)
T4D5C 000:440.989 - 0.032ms returns 0
T4D5C 000:441.012 JLINK_WriteReg(MSP, 0x20001000)
T4D5C 000:441.035 - 0.033ms returns 0
T4D5C 000:441.059 JLINK_WriteReg(PSP, 0x20001000)
T4D5C 000:441.081 - 0.032ms returns 0
T4D5C 000:441.104 JLINK_WriteReg(CFBP, 0x00000000)
T4D5C 000:441.126 - 0.032ms returns 0
T4D5C 000:441.149 JLINK_SetBPEx(Addr = 0x20000000, Type = 0xFFFFFFF2)
T4D5C 000:441.174 - 0.035ms returns 0x00000009
T4D5C 000:441.198 JLINK_Go()
T4D5C 000:441.224   CPU_WriteMem(4 bytes @ 0xE0002000)
T4D5C 000:441.579   CPU_ReadMem(4 bytes @ 0xE0001000)
T4D5C 000:444.154 - 2.977ms
T4D5C 000:444.206 JLINK_IsHalted()
T4D5C 000:444.542 - 0.348ms returns FALSE
T4D5C 000:444.578 JLINK_HasError()
T4D5C 000:445.833 JLINK_IsHalted()
T4D5C 000:446.179 - 0.358ms returns FALSE
T4D5C 000:446.207 JLINK_HasError()
T4D5C 000:448.058 JLINK_IsHalted()
T4D5C 000:448.495 - 0.502ms returns FALSE
T4D5C 000:448.589 JLINK_HasError()
T4D5C 000:450.196 JLINK_IsHalted()
T4D5C 000:450.570 - 0.386ms returns FALSE
T4D5C 000:450.598 JLINK_HasError()
T4D5C 000:451.755 JLINK_IsHalted()
T4D5C 000:452.097 - 0.353ms returns FALSE
T4D5C 000:452.122 JLINK_HasError()
T4D5C 000:453.853 JLINK_IsHalted()
T4D5C 000:454.203 - 0.364ms returns FALSE
T4D5C 000:454.233 JLINK_HasError()
T4D5C 000:455.970 JLINK_IsHalted()
T4D5C 000:458.195 - 2.244ms returns TRUE
T4D5C 000:458.232 JLINK_ReadReg(R15 (PC))
T4D5C 000:458.262   CPU_ReadMem(4 bytes @ 0xE000EE08)
T4D5C 000:458.644 - 0.426ms returns 0x20000000
T4D5C 000:458.676 JLINK_ClrBPEx(BPHandle = 0x00000009)
T4D5C 000:458.702 - 0.037ms returns 0x00
T4D5C 000:458.728 JLINK_ReadReg(R0)
T4D5C 000:458.755 - 0.045ms returns 0x00000000
T4D5C 000:460.186 JLINK_HasError()
T4D5C 000:460.239 JLINK_WriteReg(R0, 0x0800C000)
T4D5C 000:460.276 - 0.047ms returns 0
T4D5C 000:460.301 JLINK_WriteReg(R1, 0x00002000)
T4D5C 000:460.325 - 0.034ms returns 0
T4D5C 000:460.349 JLINK_WriteReg(R2, 0x000000FF)
T4D5C 000:460.384 - 0.044ms returns 0
T4D5C 000:460.406 JLINK_WriteReg(R3, 0x00000000)
T4D5C 000:460.427 - 0.030ms returns 0
T4D5C 000:460.449 JLINK_WriteReg(R4, 0x00000000)
T4D5C 000:460.469 - 0.029ms returns 0
T4D5C 000:460.490 JLINK_WriteReg(R5, 0x00000000)
T4D5C 000:460.510 - 0.030ms returns 0
T4D5C 000:460.532 JLINK_WriteReg(R6, 0x00000000)
T4D5C 000:460.552 - 0.030ms returns 0
T4D5C 000:460.574 JLINK_WriteReg(R7, 0x00000000)
T4D5C 000:460.594 - 0.029ms returns 0
T4D5C 000:460.616 JLINK_WriteReg(R8, 0x00000000)
T4D5C 000:460.636 - 0.029ms returns 0
T4D5C 000:460.657 JLINK_WriteReg(R9, 0x200001F0)
T4D5C 000:460.678 - 0.029ms returns 0
T4D5C 000:460.699 JLINK_WriteReg(R10, 0x00000000)
T4D5C 000:460.720 - 0.030ms returns 0
T4D5C 000:460.742 JLINK_WriteReg(R11, 0x00000000)
T4D5C 000:460.762 - 0.030ms returns 0
T4D5C 000:460.784 JLINK_WriteReg(R12, 0x00000000)
T4D5C 000:460.804 - 0.029ms returns 0
T4D5C 000:460.825 JLINK_WriteReg(R13 (SP), 0x20001000)
T4D5C 000:460.848 - 0.032ms returns 0
T4D5C 000:460.870 JLINK_WriteReg(R14, 0x20000001)
T4D5C 000:460.890 - 0.030ms returns 0
T4D5C 000:460.912 JLINK_WriteReg(R15 (PC), 0x20000020)
T4D5C 000:460.933 - 0.030ms returns 0
T4D5C 000:460.954 JLINK_WriteReg(XPSR, 0x01000000)
T4D5C 000:460.975 - 0.030ms returns 0
T4D5C 000:460.996 JLINK_WriteReg(MSP, 0x20001000)
T4D5C 000:461.017 - 0.030ms returns 0
T4D5C 000:461.039 JLINK_WriteReg(PSP, 0x20001000)
T4D5C 000:461.059 - 0.029ms returns 0
T4D5C 000:461.080 JLINK_WriteReg(CFBP, 0x00000000)
T4D5C 000:461.101 - 0.030ms returns 0
T4D5C 000:461.123 JLINK_SetBPEx(Addr = 0x20000000, Type = 0xFFFFFFF2)
T4D5C 000:461.146 - 0.032ms returns 0x0000000A
T4D5C 000:461.168 JLINK_Go()
T4D5C 000:461.194   CPU_WriteMem(4 bytes @ 0xE0002000)
T4D5C 000:461.570   CPU_ReadMem(4 bytes @ 0xE0001000)
T4D5C 000:464.029 - 2.901ms
T4D5C 000:464.088 JLINK_IsHalted()
T4D5C 000:466.275 - 2.225ms returns TRUE
T4D5C 000:466.331 JLINK_ReadReg(R15 (PC))
T4D5C 000:466.356   CPU_ReadMem(4 bytes @ 0xE000EE08)
T4D5C 000:466.688 - 0.368ms returns 0x20000000
T4D5C 000:466.713 JLINK_ClrBPEx(BPHandle = 0x0000000A)
T4D5C 000:466.734 - 0.029ms returns 0x00
T4D5C 000:466.758 JLINK_ReadReg(R0)
T4D5C 000:466.778 - 0.028ms returns 0x00000001
T4D5C 000:466.799 JLINK_HasError()
T4D5C 000:466.819 JLINK_WriteReg(R0, 0x0800C000)
T4D5C 000:466.839 - 0.028ms returns 0
T4D5C 000:466.859 JLINK_WriteReg(R1, 0x00002000)
T4D5C 000:466.878 - 0.028ms returns 0
T4D5C 000:466.898 JLINK_WriteReg(R2, 0x000000FF)
T4D5C 000:466.917 - 0.027ms returns 0
T4D5C 000:466.936 JLINK_WriteReg(R3, 0x00000000)
T4D5C 000:466.961 - 0.033ms returns 0
T4D5C 000:466.981 JLINK_WriteReg(R4, 0x00000000)
T4D5C 000:467.000 - 0.027ms returns 0
T4D5C 000:467.020 JLINK_WriteReg(R5, 0x00000000)
T4D5C 000:467.039 - 0.027ms returns 0
T4D5C 000:467.059 JLINK_WriteReg(R6, 0x00000000)
T4D5C 000:467.077 - 0.027ms returns 0
T4D5C 000:467.097 JLINK_WriteReg(R7, 0x00000000)
T4D5C 000:467.128 - 0.040ms returns 0
T4D5C 000:467.148 JLINK_WriteReg(R8, 0x00000000)
T4D5C 000:467.167 - 0.027ms returns 0
T4D5C 000:467.187 JLINK_WriteReg(R9, 0x200001F0)
T4D5C 000:467.205 - 0.027ms returns 0
T4D5C 000:467.225 JLINK_WriteReg(R10, 0x00000000)
T4D5C 000:467.245 - 0.028ms returns 0
T4D5C 000:467.265 JLINK_WriteReg(R11, 0x00000000)
T4D5C 000:467.284 - 0.027ms returns 0
T4D5C 000:467.303 JLINK_WriteReg(R12, 0x00000000)
T4D5C 000:467.322 - 0.027ms returns 0
T4D5C 000:467.342 JLINK_WriteReg(R13 (SP), 0x20001000)
T4D5C 000:467.362 - 0.029ms returns 0
T4D5C 000:467.381 JLINK_WriteReg(R14, 0x20000001)
T4D5C 000:467.400 - 0.028ms returns 0
T4D5C 000:467.421 JLINK_WriteReg(R15 (PC), 0x20000110)
T4D5C 000:467.440 - 0.027ms returns 0
T4D5C 000:467.460 JLINK_WriteReg(XPSR, 0x01000000)
T4D5C 000:467.479 - 0.027ms returns 0
T4D5C 000:467.499 JLINK_WriteReg(MSP, 0x20001000)
T4D5C 000:467.518 - 0.027ms returns 0
T4D5C 000:467.538 JLINK_WriteReg(PSP, 0x20001000)
T4D5C 000:467.557 - 0.027ms returns 0
T4D5C 000:467.576 JLINK_WriteReg(CFBP, 0x00000000)
T4D5C 000:467.596 - 0.028ms returns 0
T4D5C 000:467.617 JLINK_SetBPEx(Addr = 0x20000000, Type = 0xFFFFFFF2)
T4D5C 000:467.640 - 0.031ms returns 0x0000000B
T4D5C 000:467.661 JLINK_Go()
T4D5C 000:467.685   CPU_WriteMem(4 bytes @ 0xE0002000)
T4D5C 000:468.032   CPU_ReadMem(4 bytes @ 0xE0001000)
T4D5C 000:470.623 - 2.975ms
T4D5C 000:470.663 JLINK_IsHalted()
T4D5C 000:471.022 - 0.371ms returns FALSE
T4D5C 000:471.055 JLINK_HasError()
T4D5C 000:472.388 JLINK_IsHalted()
T4D5C 000:472.788 - 0.414ms returns FALSE
T4D5C 000:472.820 JLINK_HasError()
T4D5C 000:474.504 JLINK_IsHalted()
T4D5C 000:474.868 - 0.381ms returns FALSE
T4D5C 000:474.903 JLINK_HasError()
T4D5C 000:476.588 JLINK_IsHalted()
T4D5C 000:476.925 - 0.353ms returns FALSE
T4D5C 000:476.960 JLINK_HasError()
T4D5C 000:478.856 JLINK_IsHalted()
T4D5C 000:479.332 - 0.498ms returns FALSE
T4D5C 000:479.376 JLINK_HasError()
T4D5C 000:481.029 JLINK_IsHalted()
T4D5C 000:481.518 - 0.526ms returns FALSE
T4D5C 000:481.577 JLINK_HasError()
T4D5C 000:483.140 JLINK_IsHalted()
T4D5C 000:485.363 - 2.240ms returns TRUE
T4D5C 000:485.399 JLINK_ReadReg(R15 (PC))
T4D5C 000:485.433   CPU_ReadMem(4 bytes @ 0xE000EE08)
T4D5C 000:485.851 - 0.492ms returns 0x20000000
T4D5C 000:485.914 JLINK_ClrBPEx(BPHandle = 0x0000000B)
T4D5C 000:485.945 - 0.043ms returns 0x00
T4D5C 000:485.972 JLINK_ReadReg(R0)
T4D5C 000:485.998 - 0.036ms returns 0x00000000
T4D5C 000:487.161 JLINK_HasError()
T4D5C 000:487.210 JLINK_WriteReg(R0, 0x0800E000)
T4D5C 000:487.242 - 0.042ms returns 0
T4D5C 000:487.264 JLINK_WriteReg(R1, 0x00002000)
T4D5C 000:487.287 - 0.032ms returns 0
T4D5C 000:487.310 JLINK_WriteReg(R2, 0x000000FF)
T4D5C 000:487.330 - 0.030ms returns 0
T4D5C 000:487.352 JLINK_WriteReg(R3, 0x00000000)
T4D5C 000:487.372 - 0.030ms returns 0
T4D5C 000:487.394 JLINK_WriteReg(R4, 0x00000000)
T4D5C 000:487.414 - 0.030ms returns 0
T4D5C 000:487.436 JLINK_WriteReg(R5, 0x00000000)
T4D5C 000:487.457 - 0.029ms returns 0
T4D5C 000:487.478 JLINK_WriteReg(R6, 0x00000000)
T4D5C 000:487.498 - 0.029ms returns 0
T4D5C 000:487.520 JLINK_WriteReg(R7, 0x00000000)
T4D5C 000:487.541 - 0.030ms returns 0
T4D5C 000:487.574 JLINK_WriteReg(R8, 0x00000000)
T4D5C 000:487.594 - 0.030ms returns 0
T4D5C 000:487.616 JLINK_WriteReg(R9, 0x200001F0)
T4D5C 000:487.636 - 0.030ms returns 0
T4D5C 000:487.659 JLINK_WriteReg(R10, 0x00000000)
T4D5C 000:487.678 - 0.027ms returns 0
T4D5C 000:487.698 JLINK_WriteReg(R11, 0x00000000)
T4D5C 000:487.717 - 0.028ms returns 0
T4D5C 000:487.737 JLINK_WriteReg(R12, 0x00000000)
T4D5C 000:487.756 - 0.027ms returns 0
T4D5C 000:487.775 JLINK_WriteReg(R13 (SP), 0x20001000)
T4D5C 000:487.796 - 0.029ms returns 0
T4D5C 000:487.816 JLINK_WriteReg(R14, 0x20000001)
T4D5C 000:487.835 - 0.028ms returns 0
T4D5C 000:487.855 JLINK_WriteReg(R15 (PC), 0x20000020)
T4D5C 000:487.875 - 0.028ms returns 0
T4D5C 000:487.895 JLINK_WriteReg(XPSR, 0x01000000)
T4D5C 000:487.914 - 0.037ms returns 0
T4D5C 000:487.948 JLINK_WriteReg(MSP, 0x20001000)
T4D5C 000:487.967 - 0.028ms returns 0
T4D5C 000:487.987 JLINK_WriteReg(PSP, 0x20001000)
T4D5C 000:488.006 - 0.027ms returns 0
T4D5C 000:488.025 JLINK_WriteReg(CFBP, 0x00000000)
T4D5C 000:488.044 - 0.027ms returns 0
T4D5C 000:488.064 JLINK_SetBPEx(Addr = 0x20000000, Type = 0xFFFFFFF2)
T4D5C 000:488.086 - 0.030ms returns 0x0000000C
T4D5C 000:488.107 JLINK_Go()
T4D5C 000:488.131   CPU_WriteMem(4 bytes @ 0xE0002000)
T4D5C 000:488.511   CPU_ReadMem(4 bytes @ 0xE0001000)
T4D5C 000:490.815 - 2.719ms
T4D5C 000:490.839 JLINK_IsHalted()
T4D5C 000:493.247 - 2.461ms returns TRUE
T4D5C 000:493.320 JLINK_ReadReg(R15 (PC))
T4D5C 000:493.352   CPU_ReadMem(4 bytes @ 0xE000EE08)
T4D5C 000:493.747 - 0.466ms returns 0x20000000
T4D5C 000:493.808 JLINK_ClrBPEx(BPHandle = 0x0000000C)
T4D5C 000:493.837 - 0.038ms returns 0x00
T4D5C 000:493.860 JLINK_ReadReg(R0)
T4D5C 000:493.884 - 0.034ms returns 0x00000001
T4D5C 000:493.907 JLINK_HasError()
T4D5C 000:493.929 JLINK_WriteReg(R0, 0x0800E000)
T4D5C 000:493.952 - 0.032ms returns 0
T4D5C 000:493.974 JLINK_WriteReg(R1, 0x00002000)
T4D5C 000:493.995 - 0.030ms returns 0
T4D5C 000:494.017 JLINK_WriteReg(R2, 0x000000FF)
T4D5C 000:494.037 - 0.029ms returns 0
T4D5C 000:494.059 JLINK_WriteReg(R3, 0x00000000)
T4D5C 000:494.079 - 0.029ms returns 0
T4D5C 000:494.110 JLINK_WriteReg(R4, 0x00000000)
T4D5C 000:494.133 - 0.032ms returns 0
T4D5C 000:494.154 JLINK_WriteReg(R5, 0x00000000)
T4D5C 000:494.175 - 0.029ms returns 0
T4D5C 000:494.196 JLINK_WriteReg(R6, 0x00000000)
T4D5C 000:494.217 - 0.031ms returns 0
T4D5C 000:494.239 JLINK_WriteReg(R7, 0x00000000)
T4D5C 000:494.264 - 0.034ms returns 0
T4D5C 000:494.286 JLINK_WriteReg(R8, 0x00000000)
T4D5C 000:494.306 - 0.030ms returns 0
T4D5C 000:494.328 JLINK_WriteReg(R9, 0x200001F0)
T4D5C 000:494.348 - 0.029ms returns 0
T4D5C 000:494.370 JLINK_WriteReg(R10, 0x00000000)
T4D5C 000:494.390 - 0.029ms returns 0
T4D5C 000:494.411 JLINK_WriteReg(R11, 0x00000000)
T4D5C 000:494.432 - 0.029ms returns 0
T4D5C 000:494.453 JLINK_WriteReg(R12, 0x00000000)
T4D5C 000:494.474 - 0.029ms returns 0
T4D5C 000:494.495 JLINK_WriteReg(R13 (SP), 0x20001000)
T4D5C 000:494.517 - 0.031ms returns 0
T4D5C 000:494.539 JLINK_WriteReg(R14, 0x20000001)
T4D5C 000:494.559 - 0.029ms returns 0
T4D5C 000:494.581 JLINK_WriteReg(R15 (PC), 0x20000110)
T4D5C 000:494.602 - 0.030ms returns 0
T4D5C 000:494.628 JLINK_WriteReg(XPSR, 0x01000000)
T4D5C 000:494.649 - 0.031ms returns 0
T4D5C 000:494.671 JLINK_WriteReg(MSP, 0x20001000)
T4D5C 000:494.692 - 0.030ms returns 0
T4D5C 000:494.713 JLINK_WriteReg(PSP, 0x20001000)
T4D5C 000:494.734 - 0.030ms returns 0
T4D5C 000:494.756 JLINK_WriteReg(CFBP, 0x00000000)
T4D5C 000:494.777 - 0.030ms returns 0
T4D5C 000:494.798 JLINK_SetBPEx(Addr = 0x20000000, Type = 0xFFFFFFF2)
T4D5C 000:494.821 - 0.031ms returns 0x0000000D
T4D5C 000:494.843 JLINK_Go()
T4D5C 000:494.868   CPU_WriteMem(4 bytes @ 0xE0002000)
T4D5C 000:495.262   CPU_ReadMem(4 bytes @ 0xE0001000)
T4D5C 000:497.695 - 2.865ms
T4D5C 000:497.738 JLINK_IsHalted()
T4D5C 000:498.105 - 0.384ms returns FALSE
T4D5C 000:498.150 JLINK_HasError()
T4D5C 000:499.503 JLINK_IsHalted()
T4D5C 000:499.869 - 0.378ms returns FALSE
T4D5C 000:499.898 JLINK_HasError()
T4D5C 000:501.599 JLINK_IsHalted()
T4D5C 000:501.930 - 0.342ms returns FALSE
T4D5C 000:501.956 JLINK_HasError()
T4D5C 000:503.723 JLINK_IsHalted()
T4D5C 000:504.077 - 0.368ms returns FALSE
T4D5C 000:504.106 JLINK_HasError()
T4D5C 000:505.840 JLINK_IsHalted()
T4D5C 000:506.197 - 0.372ms returns FALSE
T4D5C 000:506.229 JLINK_HasError()
T4D5C 000:507.955 JLINK_IsHalted()
T4D5C 000:508.319 - 0.379ms returns FALSE
T4D5C 000:508.353 JLINK_HasError()
T4D5C 000:510.278 JLINK_IsHalted()
T4D5C 000:512.597 - 2.380ms returns TRUE
T4D5C 000:512.671 JLINK_ReadReg(R15 (PC))
T4D5C 000:512.708   CPU_ReadMem(4 bytes @ 0xE000EE08)
T4D5C 000:513.097 - 0.478ms returns 0x20000000
T4D5C 000:513.175 JLINK_ClrBPEx(BPHandle = 0x0000000D)
T4D5C 000:513.222 - 0.065ms returns 0x00
T4D5C 000:513.256 JLINK_ReadReg(R0)
T4D5C 000:513.285 - 0.040ms returns 0x00000000
T4D5C 000:514.545 JLINK_HasError()
T4D5C 000:514.596 JLINK_WriteReg(R0, 0x08010000)
T4D5C 000:514.629 - 0.042ms returns 0
T4D5C 000:514.650 JLINK_WriteReg(R1, 0x00002000)
T4D5C 000:514.670 - 0.028ms returns 0
T4D5C 000:514.690 JLINK_WriteReg(R2, 0x000000FF)
T4D5C 000:514.709 - 0.028ms returns 0
T4D5C 000:514.730 JLINK_WriteReg(R3, 0x00000000)
T4D5C 000:514.749 - 0.027ms returns 0
T4D5C 000:514.769 JLINK_WriteReg(R4, 0x00000000)
T4D5C 000:514.789 - 0.028ms returns 0
T4D5C 000:514.818 JLINK_WriteReg(R5, 0x00000000)
T4D5C 000:514.837 - 0.028ms returns 0
T4D5C 000:514.858 JLINK_WriteReg(R6, 0x00000000)
T4D5C 000:514.876 - 0.027ms returns 0
T4D5C 000:514.897 JLINK_WriteReg(R7, 0x00000000)
T4D5C 000:514.916 - 0.027ms returns 0
T4D5C 000:514.935 JLINK_WriteReg(R8, 0x00000000)
T4D5C 000:514.954 - 0.027ms returns 0
T4D5C 000:514.974 JLINK_WriteReg(R9, 0x200001F0)
T4D5C 000:514.992 - 0.027ms returns 0
T4D5C 000:515.012 JLINK_WriteReg(R10, 0x00000000)
T4D5C 000:515.031 - 0.028ms returns 0
T4D5C 000:515.051 JLINK_WriteReg(R11, 0x00000000)
T4D5C 000:515.070 - 0.027ms returns 0
T4D5C 000:515.090 JLINK_WriteReg(R12, 0x00000000)
T4D5C 000:515.108 - 0.027ms returns 0
T4D5C 000:515.128 JLINK_WriteReg(R13 (SP), 0x20001000)
T4D5C 000:515.150 - 0.030ms returns 0
T4D5C 000:515.169 JLINK_WriteReg(R14, 0x20000001)
T4D5C 000:515.188 - 0.027ms returns 0
T4D5C 000:515.208 JLINK_WriteReg(R15 (PC), 0x20000020)
T4D5C 000:515.228 - 0.028ms returns 0
T4D5C 000:515.247 JLINK_WriteReg(XPSR, 0x01000000)
T4D5C 000:515.266 - 0.028ms returns 0
T4D5C 000:515.287 JLINK_WriteReg(MSP, 0x20001000)
T4D5C 000:515.306 - 0.027ms returns 0
T4D5C 000:515.326 JLINK_WriteReg(PSP, 0x20001000)
T4D5C 000:515.345 - 0.027ms returns 0
T4D5C 000:515.364 JLINK_WriteReg(CFBP, 0x00000000)
